
**** 07/15/23 13:06:31 *********** Evaluation PSpice (Nov 1999) **************

 * C:\Users\Support\NewSemester\Elctro\Project\Part2\PART2.sch


 ****     CIRCUIT DESCRIPTION


******************************************************************************




* Schematics Version 9.1 - Web Update 1
* Sat Jul 15 13:06:27 2023



** Analysis setup **
.tran 1m 5m 0 1m
.OP 


* From [PSPICE NETLIST] section of pspiceev.ini:
.lib "nom.lib"

.INC "PART2.net"

**** INCLUDING PART2.net ****
* Schematics Netlist *



D_D1         $N_0001 $N_0002 D1N4002 
D_D2         $N_0001 $N_0003 D1N4002 
X_U1A         $N_0004 $N_0005 $N_0006 0 $N_0003 LM324
X_U2A         $N_0005 $N_0007 $N_0008 0 $N_0002 LM324
X_U3A         $N_0009 $N_0010 $N_0011 0 $N_0005 LM324
V_V6         $N_0012 $N_0013 DC 0 AC 0
+PWL 0ms 4.4v 2ms 5v 4ms 4.4v 6ms 4.4v 
V_V4         $N_0011 0 9v
V_V2         $N_0006 0 9v
V_V3         $N_0008 0 9v
R_R7         $N_0009 $N_0012  22k  
R_R6         0 $N_0009  22k  
R_R5         $N_0010 $N_0005  220k  
R_R4         0 $N_0007  22k  
R_R3         $N_0007 $N_0004  4.7k  
R_R2         $N_0004 $N_0012  22k  
R_R1         $N_0001 $N_0012  1k  
R_R8         $N_0013 $N_0010  10k  
V_V7         $N_0012 0 9v

**** RESUMING PART2.cir ****
.INC "PART2.als"



**** INCLUDING PART2.als ****
* Schematics Aliases *

.ALIASES
D_D1            D1(1=$N_0001 2=$N_0002 )
D_D2            D2(1=$N_0001 2=$N_0003 )
X_U1A           U1A(+=$N_0004 -=$N_0005 V+=$N_0006 V-=0 OUT=$N_0003 )
X_U2A           U2A(+=$N_0005 -=$N_0007 V+=$N_0008 V-=0 OUT=$N_0002 )
X_U3A           U3A(+=$N_0009 -=$N_0010 V+=$N_0011 V-=0 OUT=$N_0005 )
V_V6            V6(+=$N_0012 -=$N_0013 )
V_V4            V4(+=$N_0011 -=0 )
V_V2            V2(+=$N_0006 -=0 )
V_V3            V3(+=$N_0008 -=0 )
R_R7            R7(1=$N_0009 2=$N_0012 )
R_R6            R6(1=0 2=$N_0009 )
R_R5            R5(1=$N_0010 2=$N_0005 )
R_R4            R4(1=0 2=$N_0007 )
R_R3            R3(1=$N_0007 2=$N_0004 )
R_R2            R2(1=$N_0004 2=$N_0012 )
R_R1            R1(1=$N_0001 2=$N_0012 )
R_R8            R8(1=$N_0013 2=$N_0010 )
V_V7            V7(+=$N_0012 -=0 )
.ENDALIASES


**** RESUMING PART2.cir ****
.probe


.END

**** 07/15/23 13:06:31 *********** Evaluation PSpice (Nov 1999) **************

 * C:\Users\Support\NewSemester\Elctro\Project\Part2\PART2.sch


 ****     Diode MODEL PARAMETERS


******************************************************************************




               D1N4002         X_U1A.dx        X_U2A.dx        X_U3A.dx        
          IS   14.110000E-09  800.000000E-18  800.000000E-18  800.000000E-18 
           N    1.984                                                        
         ISR  100.000000E-12                                                 
         IKF   94.81                                                         
          BV  100.1                                                          
         IBV   10                                                            
          RS     .03389         1               1               1            
          TT    4.761000E-06                                                 
         CJO   51.170000E-12                                                 
          VJ     .3905                                                       
           M     .2762                                                       


**** 07/15/23 13:06:31 *********** Evaluation PSpice (Nov 1999) **************

 * C:\Users\Support\NewSemester\Elctro\Project\Part2\PART2.sch


 ****     BJT MODEL PARAMETERS


******************************************************************************




               X_U1A.qx        X_U2A.qx        X_U3A.qx        
               PNP             PNP             PNP             
          IS  800.000000E-18  800.000000E-18  800.000000E-18 
          BF  166.7           166.7           166.7          
          NF    1               1               1            
          BR    1               1               1            
          NR    1               1               1            
          CN    2.2             2.2             2.2          
           D     .52             .52             .52         


**** 07/15/23 13:06:31 *********** Evaluation PSpice (Nov 1999) **************

 * C:\Users\Support\NewSemester\Elctro\Project\Part2\PART2.sch


 ****     SMALL SIGNAL BIAS SOLUTION       TEMPERATURE =   27.000 DEG C


******************************************************************************



 NODE   VOLTAGE     NODE   VOLTAGE     NODE   VOLTAGE     NODE   VOLTAGE


($N_0001)     .7181                   ($N_0002)     .0366                       

($N_0003)    8.1142                   ($N_0004)    4.9343                       

($N_0005)     .0367                   ($N_0006)    9.0000                       

($N_0007)    4.0657                   ($N_0008)    9.0000                       

($N_0009)    4.5010                   ($N_0010)    8.6103                       

($N_0011)    9.0000                   ($N_0012)    9.0000                       

($N_0013)    9.0000                   (X_U1A.6)   -1.5515                       

(X_U1A.7)    8.1150                   (X_U1A.8)    8.1150                       

(X_U1A.9)    0.0000                   (X_U2A.6)    1.5059                       

(X_U2A.7)    -.3783                   (X_U2A.8)    -.3783                       

(X_U2A.9)    0.0000                   (X_U3A.6)    1.4990                       

(X_U3A.7)     .0339                   (X_U3A.8)     .0339                       

(X_U3A.9)    0.0000                   (X_U1A.10)     .6773                      

(X_U1A.11)     .0811                  (X_U1A.12) 29.77E-09                      

(X_U1A.13)     .6490                  (X_U1A.14)     .6773                      

(X_U1A.53)    7.5000                  (X_U1A.54)     .6500                      

(X_U1A.90)     .0165                  (X_U1A.91)   40.0000                      

(X_U1A.92)  -40.0000                  (X_U1A.99)    4.5000                      

(X_U2A.10)     .6773                  (X_U2A.11) 25.17E-09                      

(X_U2A.12)     .0811                  (X_U2A.13)     .6773                      

(X_U2A.14)     .6490                  (X_U2A.53)    7.5000                      

(X_U2A.54)     .6500                  (X_U2A.90)   -8.2978                      

(X_U2A.91)   40.0000                  (X_U2A.92)  -40.0000                      

(X_U2A.99)    4.5000                  (X_U3A.10)    5.1405                      

(X_U3A.11) 72.95E-09                  (X_U3A.12)     .0793                      

(X_U3A.13)    5.1405                  (X_U3A.14)    5.1127                      

(X_U3A.53)    7.5000                  (X_U3A.54)     .6500                      

(X_U3A.90)    -.0551                  (X_U3A.91)   40.0000                      

(X_U3A.92)  -40.0000                  (X_U3A.99)    4.5000                  




    VOLTAGE SOURCE CURRENTS
    NAME         CURRENT

    V_V6         3.897E-05
    V_V4        -1.006E-03
    V_V2        -9.896E-04
    V_V3        -1.006E-03
    V_V7        -8.710E-03
    X_U1A.vb    -1.551E-05
    X_U1A.vc    -1.645E-05
    X_U1A.ve     7.465E-12
    X_U1A.vlim   1.647E-05
    X_U1A.vlp   -3.998E-11
    X_U1A.vln   -4.002E-11
    X_U2A.vb     1.506E-05
    X_U2A.vc     7.464E-12
    X_U2A.ve    -1.597E-05
    X_U2A.vlim  -8.298E-03
    X_U2A.vlp   -4.830E-11
    X_U2A.vln   -3.171E-11
    X_U3A.vb     1.499E-05
    X_U3A.vc     7.464E-12
    X_U3A.ve    -1.590E-05
    X_U3A.vlim  -5.505E-05
    X_U3A.vlp   -4.006E-11
    X_U3A.vln   -3.995E-11

    TOTAL POWER DISSIPATION   1.05E-01  WATTS


**** 07/15/23 13:06:31 *********** Evaluation PSpice (Nov 1999) **************

 * C:\Users\Support\NewSemester\Elctro\Project\Part2\PART2.sch


 ****     OPERATING POINT INFORMATION      TEMPERATURE =   27.000 DEG C


******************************************************************************






**** VOLTAGE-CONTROLLED CURRENT SOURCES


NAME         X_U1A.ga    X_U1A.gcm   X_U2A.ga    X_U2A.gcm   X_U3A.ga  
I-SOURCE     1.529E-05  -2.279E-07  -1.529E-05  -2.279E-07  -1.495E-05

NAME         X_U3A.gcm 
I-SOURCE     3.818E-08


**** VOLTAGE-CONTROLLED VOLTAGE SOURCES


NAME         X_U1A.egnd  X_U2A.egnd  X_U3A.egnd
V-SOURCE     4.500E+00   4.500E+00   4.500E+00
I-SOURCE    -1.676E-05   8.298E-03   5.510E-05


**** CURRENT-CONTROLLED CURRENT SOURCES


NAME         X_U1A.fb    X_U2A.fb    X_U3A.fb  
I-SOURCE    -1.446E-01   2.034E-01   1.787E-01


**** CURRENT-CONTROLLED VOLTAGE SOURCES


NAME         X_U1A.hlim  X_U2A.hlim  X_U3A.hlim
V-SOURCE     1.647E-02  -8.298E+00  -5.505E-02
I-SOURCE    -3.294E-14   1.660E-11   1.101E-13


**** DIODES


NAME         D_D1        D_D2        X_U1A.dc    X_U1A.de    X_U1A.dlp 
MODEL        D1N4002     D1N4002     X_U1A.dx    X_U1A.dx    X_U1A.dx  
ID           8.28E-03   -1.43E-08    1.65E-05   -7.47E-12   -4.00E-11 
VD           6.82E-01   -7.40E+00    6.14E-01   -7.46E+00   -4.00E+01 
REQ          6.19E+00    3.16E+11    1.57E+03    1.00E+12    1.00E+12 
CAP          7.69E-07    2.24E-11    0.00E+00    0.00E+00    0.00E+00 

NAME         X_U1A.dln   X_U1A.dp    X_U2A.dc    X_U2A.de    X_U2A.dlp 
MODEL        X_U1A.dx    X_U1A.dx    X_U2A.dx    X_U2A.dx    X_U2A.dx  
ID          -4.00E-11   -9.00E-12   -7.46E-12    1.60E-05   -4.83E-11 
VD          -4.00E+01   -9.00E+00   -7.46E+00    6.13E-01   -4.83E+01 
REQ          1.00E+12    1.00E+12    1.00E+12    1.62E+03    1.00E+12 
CAP          0.00E+00    0.00E+00    0.00E+00    0.00E+00    0.00E+00 

NAME         X_U2A.dln   X_U2A.dp    X_U3A.dc    X_U3A.de    X_U3A.dlp 
MODEL        X_U2A.dx    X_U2A.dx    X_U3A.dx    X_U3A.dx    X_U3A.dx  
ID          -3.17E-11   -9.00E-12   -7.46E-12    1.59E-05   -4.01E-11 
VD          -3.17E+01   -9.00E+00   -7.46E+00    6.13E-01   -4.01E+01 
REQ          1.00E+12    1.00E+12    1.00E+12    1.63E+03    1.00E+12 
CAP          0.00E+00    0.00E+00    0.00E+00    0.00E+00    0.00E+00 

NAME         X_U3A.dln   X_U3A.dp  
MODEL        X_U3A.dx    X_U3A.dx  
ID          -3.99E-11   -9.00E-12 
VD          -3.99E+01   -9.00E+00 
REQ          1.00E+12    1.00E+12 
CAP          0.00E+00    0.00E+00 


**** BIPOLAR JUNCTION TRANSISTORS


NAME         X_U1A.q1    X_U1A.q2    X_U2A.q1    X_U2A.q2    X_U3A.q1  
MODEL        X_U1A.qx    X_U1A.qx    X_U2A.qx    X_U2A.qx    X_U3A.qx  
IB          -9.17E-08    4.96E-12    4.09E-12   -9.17E-08    8.63E-12 
IC          -1.53E-05   -5.61E-12   -4.74E-12   -1.53E-05   -1.38E-11 
VBE         -6.12E-01    4.26E+00    3.39E+00   -6.12E-01    3.47E+00 
VBC         -4.44E-02    4.93E+00    4.07E+00   -4.44E-02    8.61E+00 
VCE         -5.68E-01   -6.77E-01   -6.77E-01   -5.68E-01   -5.14E+00 
BETADC       1.67E+02   -1.13E+00   -1.16E+00    1.67E+02   -1.59E+00 
GM           5.91E-04    0.00E+00    0.00E+00    5.91E-04    0.00E+00 
RPI          2.82E+05    1.67E+14    1.67E+14    2.82E+05    1.67E+14 
RX           0.00E+00    0.00E+00    0.00E+00    0.00E+00    0.00E+00 
RO           8.53E+11    1.00E+12    1.00E+12    8.53E+11    1.00E+12 
CBE          0.00E+00    0.00E+00    0.00E+00    0.00E+00    0.00E+00 
CBC          0.00E+00    0.00E+00    0.00E+00    0.00E+00    0.00E+00 
CJS          0.00E+00    0.00E+00    0.00E+00    0.00E+00    0.00E+00 
BETAAC       1.67E+02    0.00E+00    0.00E+00    1.67E+02    0.00E+00 
CBX/CBX2     0.00E+00    0.00E+00    0.00E+00    0.00E+00    0.00E+00 
FT/FT2       9.41E+15    0.00E+00    0.00E+00    9.41E+15    0.00E+00 



NAME         X_U3A.q2  
MODEL        X_U3A.qx  
IB          -8.97E-08 
IC          -1.50E-05 
VBE         -6.12E-01 
VBC          4.42E+00 
VCE         -5.03E+00 
BETADC       1.67E+02 
GM           5.78E-04 
RPI          2.88E+05 
RX           0.00E+00 
RO           1.00E+12 
CBE          0.00E+00 
CBC          0.00E+00 
CJS          0.00E+00 
BETAAC       1.67E+02 
CBX/CBX2     0.00E+00 
FT/FT2       9.20E+15 


**** 07/15/23 13:06:31 *********** Evaluation PSpice (Nov 1999) **************

 * C:\Users\Support\NewSemester\Elctro\Project\Part2\PART2.sch


 ****     INITIAL TRANSIENT SOLUTION       TEMPERATURE =   27.000 DEG C


******************************************************************************



 NODE   VOLTAGE     NODE   VOLTAGE     NODE   VOLTAGE     NODE   VOLTAGE


($N_0001)     .7182                   ($N_0002)     .0366                       

($N_0003)    8.1137                   ($N_0004)    4.9343                       

($N_0005)    2.2975                   ($N_0006)    9.0000                       

($N_0007)    4.0657                   ($N_0008)    9.0000                       

($N_0009)    4.5005                   ($N_0010)    4.5003                       

($N_0011)    9.0000                   ($N_0012)    9.0000                       

($N_0013)    4.6000                   (X_U1A.6)   -1.5210                       

(X_U1A.7)    8.1145                   (X_U1A.8)    8.1145                       

(X_U1A.9)    0.0000                   (X_U2A.6)    1.5024                       

(X_U2A.7)    -.3783                   (X_U2A.8)    -.3783                       

(X_U2A.9)    0.0000                   (X_U3A.6) 415.7E-06                       

(X_U3A.7)    2.2970                   (X_U3A.8)    2.2970                       

(X_U3A.9)    0.0000                   (X_U1A.10)    2.9376                      

(X_U1A.11)     .0802                  (X_U1A.12) 41.76E-09                      

(X_U1A.13)    2.9095                  (X_U1A.14)    2.9376                      

(X_U1A.53)    7.5000                  (X_U1A.54)     .6500                      

(X_U1A.90)     .0161                  (X_U1A.91)   40.0000                      

(X_U1A.92)  -40.0000                  (X_U1A.99)    4.5000                      

(X_U2A.10)    2.9376                  (X_U2A.11) 37.16E-09                      

(X_U2A.12)     .0802                  (X_U2A.13)    2.9376                      

(X_U2A.14)    2.9095                  (X_U2A.53)    7.5000                      

(X_U2A.54)     .6500                  (X_U2A.90)   -8.2977                      

(X_U2A.91)   40.0000                  (X_U2A.92)  -40.0000                      

(X_U2A.99)    4.5000                  (X_U3A.10)    5.1081                      

(X_U3A.11)     .0398                  (X_U3A.12)     .0396                      

(X_U3A.13)    5.0942                  (X_U3A.14)    5.0942                      

(X_U3A.53)    7.5000                  (X_U3A.54)     .6500                      

(X_U3A.90)    -.0102                  (X_U3A.91)   40.0000                      

(X_U3A.92)  -40.0000                  (X_U3A.99)    4.5000                  




    VOLTAGE SOURCE CURRENTS
    NAME         CURRENT

    V_V6         9.968E-06
    V_V4        -1.006E-03
    V_V2        -9.899E-04
    V_V3        -1.006E-03
    V_V7        -8.681E-03
    X_U1A.vb    -1.521E-05
    X_U1A.vc    -1.613E-05
    X_U1A.ve     7.464E-12
    X_U1A.vlim   1.615E-05
    X_U1A.vlp   -3.998E-11
    X_U1A.vln   -4.002E-11
    X_U2A.vb     1.502E-05
    X_U2A.vc     7.464E-12
    X_U2A.ve    -1.593E-05
    X_U2A.vlim  -8.298E-03
    X_U2A.vlp   -4.830E-11
    X_U2A.vln   -3.171E-11
    X_U3A.vb     4.157E-09
    X_U3A.vc     5.203E-12
    X_U3A.ve     1.648E-12
    X_U3A.vlim  -1.019E-05
    X_U3A.vlp   -4.001E-11
    X_U3A.vln   -3.999E-11

    TOTAL POWER DISSIPATION   1.05E-01  WATTS



          JOB CONCLUDED

          TOTAL JOB TIME             .02
